
**** 07/05/24 18:11:33 ****** PSpice 23.1.0 (29 May 2024) ***** ID# 0 ********

 ** Profile: "EVM_TESTBENCH-AVG"  [ F:\Temp\lm5123sim\LM5123-Q1_PSPICE_AVG\lm5123-q1_pspice_avg-pspicefiles\evm_testbench\avg.sim ] 


 ****     CIRCUIT DESCRIPTION


******************************************************************************




** Creating circuit file "AVG.cir" 
** WARNING: THIS AUTOMATICALLY GENERATED FILE MAY BE OVERWRITTEN BY SUBSEQUENT SIMULATIONS

*Libraries: 
* Profile Libraries :
* Local Libraries :
.LIB "../../../lm5123-q1_avg.lib" 
* From [PSPICE NETLIST] section of C:\Users\Alex\cdssetup\OrCAD_PSpice\23.1.0\PSpice.ini file:
.lib "nom.lib" 

*Analysis directives: 
.AC DEC 1000 10 100k
.OPTIONS STEPGMIN
.OPTIONS ADVCONV
.OPTIONS ITL1= 1000
.OPTIONS ITL2= 400
.PROBE64 V(*) I(*) 
.INC "..\EVM_TESTBENCH.net" 



**** INCLUDING EVM_TESTBENCH.net ****
* source LM5123-Q1_PSPICE_AVG
C_COUT         N310227 0  250u  TC=0,0 
L_L2         N303849 SW  {L}  
C_C25         COMP 0  200p  TC=0,0 
R_RESR         VLOAD N310227  1m TC=0,0 
R_RSENSE         VIN N303849  {RS} TC=0,0 
R_R25         TRACK 0  50k TC=0,0 
C_C20         N16773936 N299689  100Meg  TC=0,0 
R_R24         VREF TRACK  50k TC=0,0 
C_COUT2         VLOAD 0  1u  TC=0,0 
L_L1         N16773936 VLOAD  100Meg  
V_VSUPPLY         VIN 0 5
R_RLOAD         VLOAD 0  {10/5} TC=0,0 
R_R17         COMP N307172  10k TC=0,0 
V_V4         N299689 0  AC 1 0
C_C24         N307172 0  10n  TC=0,0 
X_U1         COMP N303849 VIN 0 SW TRACK VLOAD N16773936 VREF VIN LM5123-Q1_AVG
+  PARAMS:  L=600N FS=440K RS=2M
.PARAM  rs=2m l=600n

**** RESUMING AVG.cir ****
.END

INFO(ORPSIM-15423): Unable to find index file lm5123-q1_avg.ind for library file lm5123-q1_avg.lib.

INFO(ORPSIM-15422): Making new index file lm5123-q1_avg.ind for library file lm5123-q1_avg.lib.

Index has 4 entries from 1 file(s).


WARNING(ORPSIM-15256): <X_U1.X_U1.FREQ> not a subcircuit param

WARNING(ORPSIM-15256): <X_U1.X_U1.L> not a subcircuit param

INFO(ORPSIM-16573): AC analysis does not support expression evaluation at each frequency. ABM devices with non-linear operations will be evaluated only at bias point.

**** 07/05/24 18:11:33 ****** PSpice 23.1.0 (29 May 2024) ***** ID# 0 ********

 ** Profile: "EVM_TESTBENCH-AVG"  [ F:\Temp\lm5123sim\LM5123-Q1_PSPICE_AVG\lm5123-q1_pspice_avg-pspicefiles\evm_testbench\avg.sim ] 


 ****     SMALL SIGNAL BIAS SOLUTION       TEMPERATURE =   27.000 DEG C


******************************************************************************



 NODE   VOLTAGE     NODE   VOLTAGE     NODE   VOLTAGE     NODE   VOLTAGE


(   SW)    4.9799  (  VIN)    5.0000  ( COMP)     .8376  ( VREF)    1.0000      

(TRACK)     .5000  (VLOAD)    9.9837  (N299689)    0.0000                       

(N303849)    4.9799                   (N307172)     .8376                       

(N310227)    9.9837                   (N16773936)    9.9837                 




    VOLTAGE SOURCE CURRENTS
    NAME         CURRENT

    V_VSUPPLY   -1.005E+01
    V_V4         0.000E+00

    TOTAL POWER DISSIPATION   5.02E+01  WATTS



          JOB CONCLUDED

**** 07/05/24 18:11:33 ****** PSpice 23.1.0 (29 May 2024) ***** ID# 0 ********

 ** Profile: "EVM_TESTBENCH-AVG"  [ F:\Temp\lm5123sim\LM5123-Q1_PSPICE_AVG\lm5123-q1_pspice_avg-pspicefiles\evm_testbench\avg.sim ] 


 ****     JOB STATISTICS SUMMARY


******************************************************************************



  Total job time (using Solver 1)   =         .31
